
TCA1C 000:035 SEGGER J-Link V6.14b Log File (0101ms, 0122ms total)
TCA1C 000:035 DLL Compiled: Mar  9 2017 08:46:04 (0101ms, 0122ms total)
TCA1C 000:035 Logging started @ 2017-05-24 11:05 (0101ms, 0122ms total)
TCA1C 000:136 JLINK_SetWarnOutHandler(...) (0000ms, 0122ms total)
TCA1C 000:136 JLINK_OpenEx(...)
Firmware: J-Link ARM V8 compiled Nov 28 2014 13:44:46
Hardware: V8.00
S/N: 12345678
Feature(s): RDI,FlashDL,FlashBP,JFlash,GDBFullWEBSRV Webserver running on local port 19080 (0014ms, 0136ms total)
TCA1C 000:136   returns O.K. (0014ms, 0136ms total)
TCA1C 000:150 JLINK_SetErrorOutHandler(...) (0000ms, 0136ms total)
TCA1C 000:150 JLINK_ExecCommand("ProjectFile = "F:\4 硬件设计\32\Project\四轴飞机\4 我的程序\遥控\SkyCruiser RC V1.3\project\JLinkSettings.ini"", ...). C:\Program Files (x86)\SEGGER\JLink_V614b\JLinkDevices.xml evaluated successfully.  returns 0x00 (0144ms, 0280ms total)
TCA1C 000:295 JLINK_ExecCommand("Device = STM32F103VB", ...). Device "STM32F103VB" selected.  returns 0x00 (0002ms, 0282ms total)
TCA1C 000:297 JLINK_ExecCommand("DisableConnectionTimeout", ...).   returns 0x01 (0000ms, 0282ms total)
TCA1C 000:297 JLINK_GetHardwareVersion()  returns 0x13880 (0000ms, 0282ms total)
TCA1C 000:297 JLINK_GetDLLVersion()  returns 61402 (0000ms, 0282ms total)
TCA1C 000:297 JLINK_GetFirmwareString(...) (0000ms, 0282ms total)
TCA1C 000:342 JLINK_GetDLLVersion()  returns 61402 (0000ms, 0282ms total)
TCA1C 000:342 JLINK_GetCompileDateTime() (0000ms, 0282ms total)
TCA1C 000:346 JLINK_GetFirmwareString(...) (0000ms, 0282ms total)
TCA1C 000:352 JLINK_GetHardwareVersion()  returns 0x13880 (0000ms, 0282ms total)
TCA1C 000:369 JLINK_TIF_Select(JLINKARM_TIF_JTAG)  returns 0x00 (0002ms, 0284ms total)
TCA1C 000:371 JLINK_SetSpeed(50000) (0001ms, 0285ms total)
TCA1C 000:372 JLINK_GetIdData(...) >0x2F8 JTAG>TotalIRLen = 9, IRPrint = 0x0011 >0x30 JTAG> >0x410 JTAG> >0x40 JTAG> >0x40 JTAG> >0x40 JTAG> >0x30 JTAG> >0x40 JTAG> >0x40 JTAG> >0x40 JTAG> >0x40 JTAG> >0x40 JTAG> >0x40 JTAG> >0x40 JTAG> >0x40 JTAG> >0x40 JTAG> >0x40 JTAG> >0x40 JTAG> >0x40 JTAG> >0x40 JTAG> >0x40 JTAG> >0x40 JTAG> >0x40 JTAG> >0x40 JTAG> >0x40 JTAG> >0x40 JTAG> >0x40 JTAG> >0x40 JTAG> >0x40 JTAG> >0x40 JTAG> >0x2F8 JTAG>TotalIRLen = 9, IRPrint = 0x0011 >0x30 JTAG> >0x410 JTAG>
 >0x70 JTAG> >0x50 JTAG> >0x40 JTAG> >0x50 JTAG>AP-IDR: 0x14770011, Type: AHB-APAHB-AP ROM: 0xE00FF000 (Base addr. of first ROM table) >0x80 JTAG> >0x40 JTAG> >0x30 JTAG> >0x40 JTAG> >0x40 JTAG> >0x30 JTAG> >0x40 JTAG> >0x50 JTAG>Found Cortex-M3 r1p1, Little endian. -- CPU_ReadMem(4 bytes @ 0xE000EDF0) -- CPU_WriteMem(4 bytes @ 0xE000EDF0) -- CPU_ReadMem(4 bytes @ 0xE0002000)FPUnit: 6 code (BP) slots and 2 literal slots -- CPU_ReadMem(4 bytes @ 0xE000EDFC) -- CPU_WriteMem(4 bytes @ 0xE000EDFC)
 -- CPU_ReadMem(4 bytes @ 0xE0001000) -- CPU_WriteMem(4 bytes @ 0xE0001000) -- CPU_ReadMem(4 bytes @ 0xE000ED88) -- CPU_WriteMem(4 bytes @ 0xE000ED88) -- CPU_ReadMem(4 bytes @ 0xE000ED88) -- CPU_WriteMem(4 bytes @ 0xE000ED88)CoreSight components:ROMTbl 0 @ E00FF000 -- CPU_ReadMem(16 bytes @ 0xE00FF000) -- CPU_ReadMem(16 bytes @ 0xE000EFF0) -- CPU_ReadMem(16 bytes @ 0xE000EFE0)ROMTbl 0 [0]: FFF0F000, CID: B105E00D, PID: 001BB000 SCS -- CPU_ReadMem(16 bytes @ 0xE0001FF0)
 -- CPU_ReadMem(16 bytes @ 0xE0001FE0)ROMTbl 0 [1]: FFF02000, CID: B105E00D, PID: 001BB002 DWT -- CPU_ReadMem(16 bytes @ 0xE0002FF0) -- CPU_ReadMem(16 bytes @ 0xE0002FE0)ROMTbl 0 [2]: FFF03000, CID: B105E00D, PID: 000BB003 FPB -- CPU_ReadMem(16 bytes @ 0xE0000FF0) -- CPU_ReadMem(16 bytes @ 0xE0000FE0)ROMTbl 0 [3]: FFF01000, CID: B105E00D, PID: 001BB001 ITM -- CPU_ReadMem(16 bytes @ 0xE00FF010) -- CPU_ReadMem(16 bytes @ 0xE0040FF0) -- CPU_ReadMem(16 bytes @ 0xE0040FE0)
ROMTbl 0 [4]: FFF41000, CID: B105900D, PID: 001BB923 TPIU-Lite ScanLen=9 NumDevices=2 aId[0]=0x3BA00477 aIrRead[0]=0 aScanLen[0]=0 aScanRead[0]=0 (0073ms, 0358ms total)
TCA1C 000:445 JLINK_JTAG_GetDeviceID(DeviceIndex = 0)  returns 0x3BA00477 (0001ms, 0359ms total)
TCA1C 000:446 JLINK_JTAG_GetDeviceInfo(DeviceIndex = 0)  returns 0x00 (0000ms, 0359ms total)
TCA1C 000:446 JLINK_JTAG_GetDeviceID(DeviceIndex = 1)  returns 0x16410041 (0000ms, 0359ms total)
TCA1C 000:446 JLINK_JTAG_GetDeviceInfo(DeviceIndex = 1)  returns 0x00 (0000ms, 0359ms total)
TCA1C 000:446 JLINK_GetDLLVersion()  returns 61402 (0000ms, 0359ms total)
TCA1C 000:446 JLINK_CORE_GetFound()  returns 0x30000FF (0000ms, 0359ms total)
TCA1C 000:446 JLINK_GetDebugInfo(0x100 = JLINKARM_ROM_TABLE_ADDR_INDEX) -- Value=0xE00FF000  returns 0x00 (0000ms, 0359ms total)
TCA1C 000:448 JLINK_GetDebugInfo(0x100 = JLINKARM_ROM_TABLE_ADDR_INDEX) -- Value=0xE00FF000  returns 0x00 (0000ms, 0359ms total)
TCA1C 000:448 JLINK_GetDebugInfo(0x101 = JLINKARM_DEBUG_INFO_ETM_ADDR_INDEX) -- Value=0x00000000  returns 0x00 (0000ms, 0359ms total)
TCA1C 000:448 JLINK_ReadMem (0xE0041FF0, 0x0010 Bytes, ...) -- CPU is running -- CPU_ReadMem(16 bytes @ 0xE0041FF0) - Data: 00 00 00 00 00 00 00 00 00 00 00 00 00 00 00 00  returns 0x00 (0001ms, 0360ms total)
TCA1C 000:449 JLINK_GetDebugInfo(0x102 = JLINKARM_DEBUG_INFO_MTB_ADDR_INDEX) -- Value=0x00000000  returns 0x00 (0000ms, 0360ms total)
TCA1C 000:449 JLINK_GetDebugInfo(0x103 = JLINKARM_DEBUG_INFO_TPIU_ADDR_INDEX) -- Value=0xE0040000  returns 0x00 (0000ms, 0360ms total)
TCA1C 000:449 JLINK_GetDebugInfo(0x104 = JLINKARM_DEBUG_INFO_ITM_ADDR_INDEX) -- Value=0xE0000000  returns 0x00 (0000ms, 0360ms total)
TCA1C 000:449 JLINK_GetDebugInfo(0x105 = JLINKARM_DEBUG_INFO_DWT_ADDR_INDEX) -- Value=0xE0001000  returns 0x00 (0000ms, 0360ms total)
TCA1C 000:449 JLINK_GetDebugInfo(0x106 = JLINKARM_DEBUG_INFO_FPB_ADDR_INDEX) -- Value=0xE0002000  returns 0x00 (0000ms, 0360ms total)
TCA1C 000:449 JLINK_GetDebugInfo(0x107 = JLINKARM_DEBUG_INFO_NVIC_ADDR_INDEX) -- Value=0xE000E000  returns 0x00 (0000ms, 0360ms total)
TCA1C 000:449 JLINK_GetDebugInfo(0x10C = JLINKARM_DEBUG_INFO_DBG_ADDR_INDEX) -- Value=0xE000EDF0  returns 0x00 (0000ms, 0360ms total)
TCA1C 000:449 JLINK_ReadMemU32(0xE000ED00, 0x0001 Items, ...) -- CPU is running -- CPU_ReadMem(4 bytes @ 0xE000ED00) - Data: 31 C2 1F 41  returns 0x01 (0001ms, 0361ms total)
TCA1C 000:450 JLINK_SetResetType(JLINKARM_CM3_RESET_TYPE_NORMAL)  returns JLINKARM_CM3_RESET_TYPE_NORMAL (0000ms, 0361ms total)
TCA1C 000:450 JLINK_Reset() -- CPU is running -- CPU_WriteMem(4 bytes @ 0xE000EDF0) -- CPU is running -- CPU_WriteMem(4 bytes @ 0xE000EDFC) -- CPU is running -- CPU_WriteMem(4 bytes @ 0xE000ED0C) -- CPU is running -- CPU_ReadMem(4 bytes @ 0xE000EDF0) -- CPU is running -- CPU_ReadMem(4 bytes @ 0xE000EDF0) -- CPU is running -- CPU_WriteMem(4 bytes @ 0xE000EDF0) -- CPU is running -- CPU_WriteMem(4 bytes @ 0xE000EDFC) -- CPU is running -- CPU_ReadMem(4 bytes @ 0xE000EDF0) >0x80 JTAG> >0x40 JTAG> >0x30 JTAG>
 >0x40 JTAG> >0x50 JTAG> >0x40 JTAG> -- CPU_WriteMem(4 bytes @ 0xE000EDFC) -- CPU_WriteMem(4 bytes @ 0xE0001028) -- CPU_WriteMem(4 bytes @ 0xE0001038) -- CPU_WriteMem(4 bytes @ 0xE0001048) -- CPU_WriteMem(4 bytes @ 0xE0001058) -- CPU_WriteMem(4 bytes @ 0xE0002000) -- CPU_ReadMem(4 bytes @ 0xE000EDFC) -- CPU_ReadMem(4 bytes @ 0xE0001000) (0029ms, 0390ms total)
TCA1C 000:479 JLINK_Halt()  returns 0x00 (0000ms, 0390ms total)
TCA1C 000:479 JLINK_IsHalted()  returns TRUE (0000ms, 0390ms total)
TCA1C 000:479 JLINK_ReadMemU32(0xE000EDF0, 0x0001 Items, ...) -- CPU_ReadMem(4 bytes @ 0xE000EDF0) - Data: 03 00 03 00  returns 0x01 (0001ms, 0391ms total)
TCA1C 000:480 JLINK_WriteU32(0xE000EDF0, 0xA05F0003) -- CPU_WriteMem(4 bytes @ 0xE000EDF0)  returns 0x00 (0000ms, 0391ms total)
TCA1C 000:480 JLINK_WriteU32(0xE000EDFC, 0x01000000) -- CPU_WriteMem(4 bytes @ 0xE000EDFC)  returns 0x00 (0001ms, 0392ms total)
TCA1C 000:488 JLINK_GetHWStatus(...)  returns 0x00 (0001ms, 0393ms total)
TCA1C 000:496 JLINK_GetNumBPUnits(Type = 0xFFFFFF00)  returns 0x06 (0000ms, 0393ms total)
TCA1C 000:496 JLINK_GetNumBPUnits(Type = 0xF0)  returns 0x2000 (0000ms, 0393ms total)
TCA1C 000:496 JLINK_GetNumWPUnits()  returns 0x04 (0000ms, 0393ms total)
TCA1C 000:500 JLINK_GetSpeed()  returns 0x2580 (0000ms, 0393ms total)
TCA1C 000:503 JLINK_ReadMemU32(0xE000E004, 0x0001 Items, ...) -- CPU_ReadMem(4 bytes @ 0xE000E004) - Data: 01 00 00 00  returns 0x01 (0001ms, 0394ms total)
TCA1C 000:504 JLINK_ReadMemU32(0xE000E004, 0x0001 Items, ...) -- CPU_ReadMem(4 bytes @ 0xE000E004) - Data: 01 00 00 00  returns 0x01 (0000ms, 0394ms total)
TCA1C 000:504 JLINK_WriteMem(0xE0001000, 0x001C Bytes, ...) - Data: 01 00 00 00 00 00 00 00 00 00 00 00 00 00 00 00 ... -- CPU_WriteMem(28 bytes @ 0xE0001000)  returns 0x1C (0001ms, 0395ms total)
TCA1C 000:505 JLINK_ReadMem (0xE0001000, 0x001C Bytes, ...) -- CPU_ReadMem(28 bytes @ 0xE0001000) - Data: 01 00 00 40 00 00 00 00 00 00 00 00 00 00 00 00 ...  returns 0x00 (0001ms, 0396ms total)
TCA1C 000:506 JLINK_Halt()  returns 0x00 (0000ms, 0396ms total)
TCA1C 000:506 JLINK_IsHalted()  returns TRUE (0000ms, 0396ms total)
TCA1C 000:510 JLINK_WriteMem(0x20000000, 0x0164 Bytes, ...) - Data: 00 BE 0A E0 0D 78 2D 06 68 40 08 24 40 00 00 D3 ... -- CPU_WriteMem(356 bytes @ 0x20000000)  returns 0x164 (0003ms, 0399ms total)
TCA1C 000:513 JLINK_WriteReg(R0, 0x08000000)  returns 0x00 (0000ms, 0399ms total)
TCA1C 000:513 JLINK_WriteReg(R1, 0x007A1200)  returns 0x00 (0000ms, 0399ms total)
TCA1C 000:513 JLINK_WriteReg(R2, 0x00000001)  returns 0x00 (0000ms, 0399ms total)
TCA1C 000:513 JLINK_WriteReg(R3, 0x00000000)  returns 0x00 (0000ms, 0399ms total)
TCA1C 000:513 JLINK_WriteReg(R4, 0x00000000)  returns 0x00 (0000ms, 0399ms total)
TCA1C 000:513 JLINK_WriteReg(R5, 0x00000000)  returns 0x00 (0000ms, 0399ms total)
TCA1C 000:513 JLINK_WriteReg(R6, 0x00000000)  returns 0x00 (0000ms, 0399ms total)
TCA1C 000:513 JLINK_WriteReg(R7, 0x00000000)  returns 0x00 (0000ms, 0399ms total)
TCA1C 000:513 JLINK_WriteReg(R8, 0x00000000)  returns 0x00 (0000ms, 0399ms total)
TCA1C 000:513 JLINK_WriteReg(R9, 0x20000160)  returns 0x00 (0000ms, 0399ms total)
TCA1C 000:513 JLINK_WriteReg(R10, 0x00000000)  returns 0x00 (0000ms, 0399ms total)
TCA1C 000:513 JLINK_WriteReg(R11, 0x00000000)  returns 0x00 (0000ms, 0399ms total)
TCA1C 000:513 JLINK_WriteReg(R12, 0x00000000)  returns 0x00 (0000ms, 0399ms total)
TCA1C 000:513 JLINK_WriteReg(R13 (SP), 0x20001000)  returns 0x00 (0000ms, 0399ms total)
TCA1C 000:513 JLINK_WriteReg(R14, 0x20000001)  returns 0x00 (0000ms, 0399ms total)
TCA1C 000:513 JLINK_WriteReg(R15 (PC), 0x20000038)  returns 0x00 (0000ms, 0399ms total)
TCA1C 000:513 JLINK_WriteReg(XPSR, 0x01000000)  returns 0x00 (0000ms, 0399ms total)
TCA1C 000:513 JLINK_WriteReg(MSP, 0x20001000)  returns 0x00 (0000ms, 0399ms total)
TCA1C 000:513 JLINK_WriteReg(PSP, 0x20001000)  returns 0x00 (0000ms, 0399ms total)
TCA1C 000:513 JLINK_WriteReg(CFBP, 0x00000000)  returns 0x00 (0000ms, 0399ms total)
TCA1C 000:513 JLINK_SetBPEx(Addr = 0x20000000, Type = 0xFFFFFFF2) -- CPU_ReadMem(2 bytes @ 0x20000000)  returns 0x00000001 (0001ms, 0400ms total)
TCA1C 000:514 JLINK_Go() -- CPU_WriteMem(2 bytes @ 0x20000000) -- CPU_ReadMem(4 bytes @ 0xE0001000) -- CPU_WriteMem(4 bytes @ 0xE0002008) -- CPU_WriteMem(4 bytes @ 0xE000200C) -- CPU_WriteMem(4 bytes @ 0xE0002010) -- CPU_WriteMem(4 bytes @ 0xE0002014) -- CPU_WriteMem(4 bytes @ 0xE0002018) -- CPU_WriteMem(4 bytes @ 0xE000201C) -- CPU_WriteMem(4 bytes @ 0xE0001004) (0006ms, 0406ms total)
TCA1C 000:520 JLINK_IsHalted() -- CPU_ReadMem(2 bytes @ 0x20000000)  returns TRUE (0003ms, 0409ms total)
TCA1C 000:523 JLINK_ReadReg(R15 (PC))  returns 0x20000000 (0000ms, 0406ms total)
TCA1C 000:523 JLINK_ClrBPEx(BPHandle = 0x00000001)  returns 0x00 (0000ms, 0406ms total)
TCA1C 000:523 JLINK_ReadReg(R0)  returns 0x00000000 (0000ms, 0406ms total)
TCA1C 000:524 JLINK_WriteReg(R0, 0x08000000)  returns 0x00 (0000ms, 0406ms total)
TCA1C 000:524 JLINK_WriteReg(R1, 0x00000400)  returns 0x00 (0000ms, 0406ms total)
TCA1C 000:524 JLINK_WriteReg(R2, 0x000000FF)  returns 0x00 (0000ms, 0406ms total)
TCA1C 000:524 JLINK_WriteReg(R3, 0x00000000)  returns 0x00 (0000ms, 0406ms total)
TCA1C 000:524 JLINK_WriteReg(R4, 0x00000000)  returns 0x00 (0001ms, 0407ms total)
TCA1C 000:525 JLINK_WriteReg(R5, 0x00000000)  returns 0x00 (0000ms, 0407ms total)
TCA1C 000:525 JLINK_WriteReg(R6, 0x00000000)  returns 0x00 (0000ms, 0407ms total)
TCA1C 000:525 JLINK_WriteReg(R7, 0x00000000)  returns 0x00 (0000ms, 0407ms total)
TCA1C 000:525 JLINK_WriteReg(R8, 0x00000000)  returns 0x00 (0000ms, 0407ms total)
TCA1C 000:525 JLINK_WriteReg(R9, 0x20000160)  returns 0x00 (0000ms, 0407ms total)
TCA1C 000:525 JLINK_WriteReg(R10, 0x00000000)  returns 0x00 (0000ms, 0407ms total)
TCA1C 000:525 JLINK_WriteReg(R11, 0x00000000)  returns 0x00 (0000ms, 0407ms total)
TCA1C 000:525 JLINK_WriteReg(R12, 0x00000000)  returns 0x00 (0000ms, 0407ms total)
TCA1C 000:525 JLINK_WriteReg(R13 (SP), 0x20001000)  returns 0x00 (0000ms, 0407ms total)
TCA1C 000:525 JLINK_WriteReg(R14, 0x20000001)  returns 0x00 (0000ms, 0407ms total)
TCA1C 000:525 JLINK_WriteReg(R15 (PC), 0x20000020)  returns 0x00 (0000ms, 0407ms total)
TCA1C 000:525 JLINK_WriteReg(XPSR, 0x01000000)  returns 0x00 (0000ms, 0407ms total)
TCA1C 000:525 JLINK_WriteReg(MSP, 0x20001000)  returns 0x00 (0000ms, 0407ms total)
TCA1C 000:525 JLINK_WriteReg(PSP, 0x20001000)  returns 0x00 (0000ms, 0407ms total)
TCA1C 000:525 JLINK_WriteReg(CFBP, 0x00000000)  returns 0x00 (0000ms, 0407ms total)
TCA1C 000:525 JLINK_SetBPEx(Addr = 0x20000000, Type = 0xFFFFFFF2)  returns 0x00000002 (0000ms, 0407ms total)
TCA1C 000:525 JLINK_Go() -- CPU_ReadMem(4 bytes @ 0xE0001000) (0002ms, 0409ms total)
TCA1C 000:527 JLINK_IsHalted() -- CPU_ReadMem(2 bytes @ 0x20000000)  returns TRUE (0003ms, 0412ms total)
TCA1C 000:530 JLINK_ReadReg(R15 (PC))  returns 0x20000000 (0000ms, 0409ms total)
TCA1C 000:530 JLINK_ClrBPEx(BPHandle = 0x00000002)  returns 0x00 (0000ms, 0409ms total)
TCA1C 000:530 JLINK_ReadReg(R0)  returns 0x00000001 (0000ms, 0409ms total)
TCA1C 000:530 JLINK_WriteReg(R0, 0x08000000)  returns 0x00 (0000ms, 0409ms total)
TCA1C 000:530 JLINK_WriteReg(R1, 0x00000400)  returns 0x00 (0000ms, 0409ms total)
TCA1C 000:530 JLINK_WriteReg(R2, 0x000000FF)  returns 0x00 (0000ms, 0409ms total)
TCA1C 000:530 JLINK_WriteReg(R3, 0x00000000)  returns 0x00 (0001ms, 0410ms total)
TCA1C 000:531 JLINK_WriteReg(R4, 0x00000000)  returns 0x00 (0000ms, 0410ms total)
TCA1C 000:531 JLINK_WriteReg(R5, 0x00000000)  returns 0x00 (0000ms, 0410ms total)
TCA1C 000:531 JLINK_WriteReg(R6, 0x00000000)  returns 0x00 (0000ms, 0410ms total)
TCA1C 000:531 JLINK_WriteReg(R7, 0x00000000)  returns 0x00 (0000ms, 0410ms total)
TCA1C 000:531 JLINK_WriteReg(R8, 0x00000000)  returns 0x00 (0000ms, 0410ms total)
TCA1C 000:531 JLINK_WriteReg(R9, 0x20000160)  returns 0x00 (0000ms, 0410ms total)
TCA1C 000:531 JLINK_WriteReg(R10, 0x00000000)  returns 0x00 (0000ms, 0410ms total)
TCA1C 000:531 JLINK_WriteReg(R11, 0x00000000)  returns 0x00 (0000ms, 0410ms total)
TCA1C 000:531 JLINK_WriteReg(R12, 0x00000000)  returns 0x00 (0000ms, 0410ms total)
TCA1C 000:531 JLINK_WriteReg(R13 (SP), 0x20001000)  returns 0x00 (0000ms, 0410ms total)
TCA1C 000:531 JLINK_WriteReg(R14, 0x20000001)  returns 0x00 (0000ms, 0410ms total)
TCA1C 000:531 JLINK_WriteReg(R15 (PC), 0x200000B6)  returns 0x00 (0000ms, 0410ms total)
TCA1C 000:531 JLINK_WriteReg(XPSR, 0x01000000)  returns 0x00 (0000ms, 0410ms total)
TCA1C 000:531 JLINK_WriteReg(MSP, 0x20001000)  returns 0x00 (0000ms, 0410ms total)
TCA1C 000:531 JLINK_WriteReg(PSP, 0x20001000)  returns 0x00 (0000ms, 0410ms total)
TCA1C 000:531 JLINK_WriteReg(CFBP, 0x00000000)  returns 0x00 (0000ms, 0410ms total)
TCA1C 000:531 JLINK_SetBPEx(Addr = 0x20000000, Type = 0xFFFFFFF2)  returns 0x00000003 (0000ms, 0410ms total)
TCA1C 000:531 JLINK_Go() -- CPU_ReadMem(4 bytes @ 0xE0001000) (0002ms, 0412ms total)
TCA1C 000:533 JLINK_IsHalted()  returns FALSE (0001ms, 0413ms total)
TCA1C 000:590 JLINK_IsHalted() -- CPU_ReadMem(2 bytes @ 0x20000000)  returns TRUE (0003ms, 0415ms total)
TCA1C 000:593 JLINK_ReadReg(R15 (PC))  returns 0x20000000 (0000ms, 0412ms total)
TCA1C 000:593 JLINK_ClrBPEx(BPHandle = 0x00000003)  returns 0x00 (0000ms, 0412ms total)
TCA1C 000:593 JLINK_ReadReg(R0)  returns 0x00000000 (0000ms, 0412ms total)
TCA1C 000:594 JLINK_WriteReg(R0, 0x08000400)  returns 0x00 (0000ms, 0412ms total)
TCA1C 000:594 JLINK_WriteReg(R1, 0x00000400)  returns 0x00 (0000ms, 0412ms total)
TCA1C 000:594 JLINK_WriteReg(R2, 0x000000FF)  returns 0x00 (0000ms, 0412ms total)
TCA1C 000:594 JLINK_WriteReg(R3, 0x00000000)  returns 0x00 (0000ms, 0412ms total)
TCA1C 000:594 JLINK_WriteReg(R4, 0x00000000)  returns 0x00 (0000ms, 0412ms total)
TCA1C 000:594 JLINK_WriteReg(R5, 0x00000000)  returns 0x00 (0000ms, 0412ms total)
TCA1C 000:594 JLINK_WriteReg(R6, 0x00000000)  returns 0x00 (0000ms, 0412ms total)
TCA1C 000:594 JLINK_WriteReg(R7, 0x00000000)  returns 0x00 (0000ms, 0412ms total)
TCA1C 000:594 JLINK_WriteReg(R8, 0x00000000)  returns 0x00 (0000ms, 0412ms total)
TCA1C 000:594 JLINK_WriteReg(R9, 0x20000160)  returns 0x00 (0000ms, 0412ms total)
TCA1C 000:594 JLINK_WriteReg(R10, 0x00000000)  returns 0x00 (0000ms, 0412ms total)
TCA1C 000:594 JLINK_WriteReg(R11, 0x00000000)  returns 0x00 (0000ms, 0412ms total)
TCA1C 000:594 JLINK_WriteReg(R12, 0x00000000)  returns 0x00 (0000ms, 0412ms total)
TCA1C 000:594 JLINK_WriteReg(R13 (SP), 0x20001000)  returns 0x00 (0000ms, 0412ms total)
TCA1C 000:594 JLINK_WriteReg(R14, 0x20000001)  returns 0x00 (0000ms, 0412ms total)
TCA1C 000:594 JLINK_WriteReg(R15 (PC), 0x20000020)  returns 0x00 (0000ms, 0412ms total)
TCA1C 000:594 JLINK_WriteReg(XPSR, 0x01000000)  returns 0x00 (0000ms, 0412ms total)
TCA1C 000:594 JLINK_WriteReg(MSP, 0x20001000)  returns 0x00 (0000ms, 0412ms total)
TCA1C 000:594 JLINK_WriteReg(PSP, 0x20001000)  returns 0x00 (0000ms, 0412ms total)
TCA1C 000:594 JLINK_WriteReg(CFBP, 0x00000000)  returns 0x00 (0000ms, 0412ms total)
TCA1C 000:594 JLINK_SetBPEx(Addr = 0x20000000, Type = 0xFFFFFFF2)  returns 0x00000004 (0000ms, 0412ms total)
TCA1C 000:594 JLINK_Go() -- CPU_ReadMem(4 bytes @ 0xE0001000) (0002ms, 0414ms total)
TCA1C 000:596 JLINK_IsHalted() -- CPU_ReadMem(2 bytes @ 0x20000000)  returns TRUE (0004ms, 0418ms total)
TCA1C 000:600 JLINK_ReadReg(R15 (PC))  returns 0x20000000 (0000ms, 0414ms total)
TCA1C 000:600 JLINK_ClrBPEx(BPHandle = 0x00000004)  returns 0x00 (0000ms, 0414ms total)
TCA1C 000:600 JLINK_ReadReg(R0)  returns 0x00000001 (0000ms, 0414ms total)
TCA1C 000:600 JLINK_WriteReg(R0, 0x08000400)  returns 0x00 (0000ms, 0414ms total)
TCA1C 000:600 JLINK_WriteReg(R1, 0x00000400)  returns 0x00 (0000ms, 0414ms total)
TCA1C 000:600 JLINK_WriteReg(R2, 0x000000FF)  returns 0x00 (0000ms, 0414ms total)
TCA1C 000:600 JLINK_WriteReg(R3, 0x00000000)  returns 0x00 (0000ms, 0414ms total)
TCA1C 000:600 JLINK_WriteReg(R4, 0x00000000)  returns 0x00 (0000ms, 0414ms total)
TCA1C 000:600 JLINK_WriteReg(R5, 0x00000000)  returns 0x00 (0000ms, 0414ms total)
TCA1C 000:600 JLINK_WriteReg(R6, 0x00000000)  returns 0x00 (0000ms, 0414ms total)
TCA1C 000:600 JLINK_WriteReg(R7, 0x00000000)  returns 0x00 (0000ms, 0414ms total)
TCA1C 000:600 JLINK_WriteReg(R8, 0x00000000)  returns 0x00 (0000ms, 0414ms total)
TCA1C 000:600 JLINK_WriteReg(R9, 0x20000160)  returns 0x00 (0000ms, 0414ms total)
TCA1C 000:600 JLINK_WriteReg(R10, 0x00000000)  returns 0x00 (0000ms, 0414ms total)
TCA1C 000:600 JLINK_WriteReg(R11, 0x00000000)  returns 0x00 (0000ms, 0414ms total)
TCA1C 000:600 JLINK_WriteReg(R12, 0x00000000)  returns 0x00 (0000ms, 0414ms total)
TCA1C 000:600 JLINK_WriteReg(R13 (SP), 0x20001000)  returns 0x00 (0000ms, 0414ms total)
TCA1C 000:600 JLINK_WriteReg(R14, 0x20000001)  returns 0x00 (0000ms, 0414ms total)
TCA1C 000:600 JLINK_WriteReg(R15 (PC), 0x200000B6)  returns 0x00 (0000ms, 0414ms total)
TCA1C 000:600 JLINK_WriteReg(XPSR, 0x01000000)  returns 0x00 (0000ms, 0414ms total)
TCA1C 000:600 JLINK_WriteReg(MSP, 0x20001000)  returns 0x00 (0000ms, 0414ms total)
TCA1C 000:600 JLINK_WriteReg(PSP, 0x20001000)  returns 0x00 (0000ms, 0414ms total)
TCA1C 000:600 JLINK_WriteReg(CFBP, 0x00000000)  returns 0x00 (0000ms, 0414ms total)
TCA1C 000:600 JLINK_SetBPEx(Addr = 0x20000000, Type = 0xFFFFFFF2)  returns 0x00000005 (0000ms, 0414ms total)
TCA1C 000:600 JLINK_Go() -- CPU_ReadMem(4 bytes @ 0xE0001000) (0002ms, 0416ms total)
TCA1C 000:602 JLINK_IsHalted()  returns FALSE (0000ms, 0416ms total)
TCA1C 000:604 JLINK_IsHalted()  returns FALSE (0000ms, 0416ms total)
TCA1C 000:606 JLINK_IsHalted()  returns FALSE (0000ms, 0416ms total)
TCA1C 000:608 JLINK_IsHalted()  returns FALSE (0000ms, 0416ms total)
TCA1C 000:610 JLINK_IsHalted()  returns FALSE (0000ms, 0416ms total)
TCA1C 000:612 JLINK_IsHalted()  returns FALSE (0000ms, 0416ms total)
TCA1C 000:614 JLINK_IsHalted()  returns FALSE (0000ms, 0416ms total)
TCA1C 000:618 JLINK_IsHalted()  returns FALSE (0000ms, 0416ms total)
TCA1C 000:620 JLINK_IsHalted()  returns FALSE (0000ms, 0416ms total)
TCA1C 000:622 JLINK_IsHalted()  returns FALSE (0000ms, 0416ms total)
TCA1C 000:624 JLINK_IsHalted() -- CPU_ReadMem(2 bytes @ 0x20000000)  returns TRUE (0003ms, 0419ms total)
TCA1C 000:627 JLINK_ReadReg(R15 (PC))  returns 0x20000000 (0000ms, 0416ms total)
TCA1C 000:627 JLINK_ClrBPEx(BPHandle = 0x00000005)  returns 0x00 (0000ms, 0416ms total)
TCA1C 000:627 JLINK_ReadReg(R0)  returns 0x00000000 (0000ms, 0416ms total)
TCA1C 000:628 JLINK_WriteReg(R0, 0x08000800)  returns 0x00 (0000ms, 0416ms total)
TCA1C 000:628 JLINK_WriteReg(R1, 0x00000400)  returns 0x00 (0000ms, 0416ms total)
TCA1C 000:628 JLINK_WriteReg(R2, 0x000000FF)  returns 0x00 (0000ms, 0416ms total)
TCA1C 000:628 JLINK_WriteReg(R3, 0x00000000)  returns 0x00 (0000ms, 0416ms total)
TCA1C 000:628 JLINK_WriteReg(R4, 0x00000000)  returns 0x00 (0000ms, 0416ms total)
TCA1C 000:628 JLINK_WriteReg(R5, 0x00000000)  returns 0x00 (0000ms, 0416ms total)
TCA1C 000:628 JLINK_WriteReg(R6, 0x00000000)  returns 0x00 (0000ms, 0416ms total)
TCA1C 000:628 JLINK_WriteReg(R7, 0x00000000)  returns 0x00 (0000ms, 0416ms total)
TCA1C 000:628 JLINK_WriteReg(R8, 0x00000000)  returns 0x00 (0000ms, 0416ms total)
TCA1C 000:628 JLINK_WriteReg(R9, 0x20000160)  returns 0x00 (0000ms, 0416ms total)
TCA1C 000:628 JLINK_WriteReg(R10, 0x00000000)  returns 0x00 (0000ms, 0416ms total)
TCA1C 000:628 JLINK_WriteReg(R11, 0x00000000)  returns 0x00 (0000ms, 0416ms total)
TCA1C 000:628 JLINK_WriteReg(R12, 0x00000000)  returns 0x00 (0000ms, 0416ms total)
TCA1C 000:628 JLINK_WriteReg(R13 (SP), 0x20001000)  returns 0x00 (0000ms, 0416ms total)
TCA1C 000:628 JLINK_WriteReg(R14, 0x20000001)  returns 0x00 (0000ms, 0416ms total)
TCA1C 000:628 JLINK_WriteReg(R15 (PC), 0x20000020)  returns 0x00 (0000ms, 0416ms total)
TCA1C 000:628 JLINK_WriteReg(XPSR, 0x01000000)  returns 0x00 (0000ms, 0416ms total)
TCA1C 000:628 JLINK_WriteReg(MSP, 0x20001000)  returns 0x00 (0000ms, 0416ms total)
TCA1C 000:628 JLINK_WriteReg(PSP, 0x20001000)  returns 0x00 (0000ms, 0416ms total)
TCA1C 000:628 JLINK_WriteReg(CFBP, 0x00000000)  returns 0x00 (0000ms, 0416ms total)
TCA1C 000:628 JLINK_SetBPEx(Addr = 0x20000000, Type = 0xFFFFFFF2)  returns 0x00000006 (0000ms, 0416ms total)
TCA1C 000:628 JLINK_Go() -- CPU_ReadMem(4 bytes @ 0xE0001000) (0002ms, 0418ms total)
TCA1C 000:630 JLINK_IsHalted() -- CPU_ReadMem(2 bytes @ 0x20000000)  returns TRUE (0004ms, 0422ms total)
TCA1C 000:634 JLINK_ReadReg(R15 (PC))  returns 0x20000000 (0000ms, 0418ms total)
TCA1C 000:634 JLINK_ClrBPEx(BPHandle = 0x00000006)  returns 0x00 (0000ms, 0418ms total)
TCA1C 000:634 JLINK_ReadReg(R0)  returns 0x00000001 (0000ms, 0418ms total)
TCA1C 000:634 JLINK_WriteReg(R0, 0x08000800)  returns 0x00 (0000ms, 0418ms total)
TCA1C 000:634 JLINK_WriteReg(R1, 0x00000400)  returns 0x00 (0000ms, 0418ms total)
TCA1C 000:634 JLINK_WriteReg(R2, 0x000000FF)  returns 0x00 (0000ms, 0418ms total)
TCA1C 000:634 JLINK_WriteReg(R3, 0x00000000)  returns 0x00 (0000ms, 0418ms total)
TCA1C 000:634 JLINK_WriteReg(R4, 0x00000000)  returns 0x00 (0000ms, 0418ms total)
TCA1C 000:634 JLINK_WriteReg(R5, 0x00000000)  returns 0x00 (0000ms, 0418ms total)
TCA1C 000:634 JLINK_WriteReg(R6, 0x00000000)  returns 0x00 (0000ms, 0418ms total)
TCA1C 000:634 JLINK_WriteReg(R7, 0x00000000)  returns 0x00 (0000ms, 0418ms total)
TCA1C 000:634 JLINK_WriteReg(R8, 0x00000000)  returns 0x00 (0000ms, 0418ms total)
TCA1C 000:634 JLINK_WriteReg(R9, 0x20000160)  returns 0x00 (0000ms, 0418ms total)
TCA1C 000:634 JLINK_WriteReg(R10, 0x00000000)  returns 0x00 (0000ms, 0418ms total)
TCA1C 000:634 JLINK_WriteReg(R11, 0x00000000)  returns 0x00 (0000ms, 0418ms total)
TCA1C 000:634 JLINK_WriteReg(R12, 0x00000000)  returns 0x00 (0000ms, 0418ms total)
TCA1C 000:634 JLINK_WriteReg(R13 (SP), 0x20001000)  returns 0x00 (0000ms, 0418ms total)
TCA1C 000:634 JLINK_WriteReg(R14, 0x20000001)  returns 0x00 (0000ms, 0418ms total)
TCA1C 000:634 JLINK_WriteReg(R15 (PC), 0x200000B6)  returns 0x00 (0000ms, 0418ms total)
TCA1C 000:634 JLINK_WriteReg(XPSR, 0x01000000)  returns 0x00 (0000ms, 0418ms total)
TCA1C 000:634 JLINK_WriteReg(MSP, 0x20001000)  returns 0x00 (0000ms, 0418ms total)
TCA1C 000:634 JLINK_WriteReg(PSP, 0x20001000)  returns 0x00 (0000ms, 0418ms total)
TCA1C 000:634 JLINK_WriteReg(CFBP, 0x00000000)  returns 0x00 (0000ms, 0418ms total)
TCA1C 000:634 JLINK_SetBPEx(Addr = 0x20000000, Type = 0xFFFFFFF2)  returns 0x00000007 (0000ms, 0418ms total)
TCA1C 000:634 JLINK_Go() -- CPU_ReadMem(4 bytes @ 0xE0001000) (0002ms, 0420ms total)
TCA1C 000:636 JLINK_IsHalted()  returns FALSE (0001ms, 0421ms total)
TCA1C 000:639 JLINK_IsHalted()  returns FALSE (0000ms, 0420ms total)
TCA1C 000:641 JLINK_IsHalted()  returns FALSE (0000ms, 0420ms total)
TCA1C 000:643 JLINK_IsHalted()  returns FALSE (0000ms, 0420ms total)
TCA1C 000:645 JLINK_IsHalted()  returns FALSE (0000ms, 0420ms total)
TCA1C 000:647 JLINK_IsHalted()  returns FALSE (0000ms, 0420ms total)
TCA1C 000:649 JLINK_IsHalted()  returns FALSE (0000ms, 0420ms total)
TCA1C 000:651 JLINK_IsHalted()  returns FALSE (0000ms, 0420ms total)
TCA1C 000:655 JLINK_IsHalted()  returns FALSE (0000ms, 0420ms total)
TCA1C 000:657 JLINK_IsHalted()  returns FALSE (0000ms, 0420ms total)
TCA1C 000:659 JLINK_IsHalted() -- CPU_ReadMem(2 bytes @ 0x20000000)  returns TRUE (0003ms, 0423ms total)
TCA1C 000:662 JLINK_ReadReg(R15 (PC))  returns 0x20000000 (0000ms, 0420ms total)
TCA1C 000:662 JLINK_ClrBPEx(BPHandle = 0x00000007)  returns 0x00 (0000ms, 0420ms total)
TCA1C 000:662 JLINK_ReadReg(R0)  returns 0x00000000 (0000ms, 0420ms total)
TCA1C 000:663 JLINK_WriteReg(R0, 0x08000C00)  returns 0x00 (0000ms, 0420ms total)
TCA1C 000:663 JLINK_WriteReg(R1, 0x00000400)  returns 0x00 (0000ms, 0420ms total)
TCA1C 000:663 JLINK_WriteReg(R2, 0x000000FF)  returns 0x00 (0000ms, 0420ms total)
TCA1C 000:663 JLINK_WriteReg(R3, 0x00000000)  returns 0x00 (0000ms, 0420ms total)
TCA1C 000:663 JLINK_WriteReg(R4, 0x00000000)  returns 0x00 (0000ms, 0420ms total)
TCA1C 000:663 JLINK_WriteReg(R5, 0x00000000)  returns 0x00 (0000ms, 0420ms total)
TCA1C 000:663 JLINK_WriteReg(R6, 0x00000000)  returns 0x00 (0000ms, 0420ms total)
TCA1C 000:663 JLINK_WriteReg(R7, 0x00000000)  returns 0x00 (0000ms, 0420ms total)
TCA1C 000:663 JLINK_WriteReg(R8, 0x00000000)  returns 0x00 (0000ms, 0420ms total)
TCA1C 000:663 JLINK_WriteReg(R9, 0x20000160)  returns 0x00 (0000ms, 0420ms total)
TCA1C 000:663 JLINK_WriteReg(R10, 0x00000000)  returns 0x00 (0000ms, 0420ms total)
TCA1C 000:663 JLINK_WriteReg(R11, 0x00000000)  returns 0x00 (0000ms, 0420ms total)
TCA1C 000:663 JLINK_WriteReg(R12, 0x00000000)  returns 0x00 (0000ms, 0420ms total)
TCA1C 000:663 JLINK_WriteReg(R13 (SP), 0x20001000)  returns 0x00 (0000ms, 0420ms total)
TCA1C 000:663 JLINK_WriteReg(R14, 0x20000001)  returns 0x00 (0000ms, 0420ms total)
TCA1C 000:663 JLINK_WriteReg(R15 (PC), 0x20000020)  returns 0x00 (0000ms, 0420ms total)
TCA1C 000:663 JLINK_WriteReg(XPSR, 0x01000000)  returns 0x00 (0000ms, 0420ms total)
TCA1C 000:663 JLINK_WriteReg(MSP, 0x20001000)  returns 0x00 (0000ms, 0420ms total)
TCA1C 000:663 JLINK_WriteReg(PSP, 0x20001000)  returns 0x00 (0000ms, 0420ms total)
TCA1C 000:663 JLINK_WriteReg(CFBP, 0x00000000)  returns 0x00 (0000ms, 0420ms total)
TCA1C 000:663 JLINK_SetBPEx(Addr = 0x20000000, Type = 0xFFFFFFF2)  returns 0x00000008 (0000ms, 0420ms total)
TCA1C 000:663 JLINK_Go() -- CPU_ReadMem(4 bytes @ 0xE0001000) (0002ms, 0422ms total)
TCA1C 000:665 JLINK_IsHalted() -- CPU_ReadMem(2 bytes @ 0x20000000)  returns TRUE (0004ms, 0426ms total)
TCA1C 000:669 JLINK_ReadReg(R15 (PC))  returns 0x20000000 (0000ms, 0422ms total)
TCA1C 000:669 JLINK_ClrBPEx(BPHandle = 0x00000008)  returns 0x00 (0000ms, 0422ms total)
TCA1C 000:669 JLINK_ReadReg(R0)  returns 0x00000001 (0000ms, 0422ms total)
TCA1C 000:669 JLINK_WriteReg(R0, 0x08000C00)  returns 0x00 (0000ms, 0422ms total)
TCA1C 000:669 JLINK_WriteReg(R1, 0x00000400)  returns 0x00 (0000ms, 0422ms total)
TCA1C 000:669 JLINK_WriteReg(R2, 0x000000FF)  returns 0x00 (0000ms, 0422ms total)
TCA1C 000:669 JLINK_WriteReg(R3, 0x00000000)  returns 0x00 (0000ms, 0422ms total)
TCA1C 000:669 JLINK_WriteReg(R4, 0x00000000)  returns 0x00 (0000ms, 0422ms total)
TCA1C 000:669 JLINK_WriteReg(R5, 0x00000000)  returns 0x00 (0000ms, 0422ms total)
TCA1C 000:669 JLINK_WriteReg(R6, 0x00000000)  returns 0x00 (0000ms, 0422ms total)
TCA1C 000:669 JLINK_WriteReg(R7, 0x00000000)  returns 0x00 (0000ms, 0422ms total)
TCA1C 000:669 JLINK_WriteReg(R8, 0x00000000)  returns 0x00 (0000ms, 0422ms total)
TCA1C 000:669 JLINK_WriteReg(R9, 0x20000160)  returns 0x00 (0000ms, 0422ms total)
TCA1C 000:669 JLINK_WriteReg(R10, 0x00000000)  returns 0x00 (0000ms, 0422ms total)
TCA1C 000:669 JLINK_WriteReg(R11, 0x00000000)  returns 0x00 (0000ms, 0422ms total)
TCA1C 000:669 JLINK_WriteReg(R12, 0x00000000)  returns 0x00 (0000ms, 0422ms total)
TCA1C 000:669 JLINK_WriteReg(R13 (SP), 0x20001000)  returns 0x00 (0000ms, 0422ms total)
TCA1C 000:669 JLINK_WriteReg(R14, 0x20000001)  returns 0x00 (0000ms, 0422ms total)
TCA1C 000:669 JLINK_WriteReg(R15 (PC), 0x200000B6)  returns 0x00 (0000ms, 0422ms total)
TCA1C 000:669 JLINK_WriteReg(XPSR, 0x01000000)  returns 0x00 (0000ms, 0422ms total)
TCA1C 000:669 JLINK_WriteReg(MSP, 0x20001000)  returns 0x00 (0000ms, 0422ms total)
TCA1C 000:669 JLINK_WriteReg(PSP, 0x20001000)  returns 0x00 (0000ms, 0422ms total)
TCA1C 000:669 JLINK_WriteReg(CFBP, 0x00000000)  returns 0x00 (0000ms, 0422ms total)
TCA1C 000:669 JLINK_SetBPEx(Addr = 0x20000000, Type = 0xFFFFFFF2)  returns 0x00000009 (0000ms, 0422ms total)
TCA1C 000:669 JLINK_Go() -- CPU_ReadMem(4 bytes @ 0xE0001000) (0002ms, 0424ms total)
TCA1C 000:671 JLINK_IsHalted()  returns FALSE (0001ms, 0425ms total)
TCA1C 000:674 JLINK_IsHalted()  returns FALSE (0000ms, 0424ms total)
TCA1C 000:676 JLINK_IsHalted()  returns FALSE (0000ms, 0424ms total)
TCA1C 000:678 JLINK_IsHalted()  returns FALSE (0000ms, 0424ms total)
TCA1C 000:680 JLINK_IsHalted()  returns FALSE (0000ms, 0424ms total)
TCA1C 000:682 JLINK_IsHalted()  returns FALSE (0000ms, 0424ms total)
TCA1C 000:684 JLINK_IsHalted()  returns FALSE (0000ms, 0424ms total)
TCA1C 000:686 JLINK_IsHalted()  returns FALSE (0000ms, 0424ms total)
TCA1C 000:688 JLINK_IsHalted()  returns FALSE (0000ms, 0424ms total)
TCA1C 000:690 JLINK_IsHalted()  returns FALSE (0000ms, 0424ms total)
TCA1C 000:692 JLINK_IsHalted()  returns FALSE (0000ms, 0424ms total)
TCA1C 000:694 JLINK_IsHalted() -- CPU_ReadMem(2 bytes @ 0x20000000)  returns TRUE (0003ms, 0427ms total)
TCA1C 000:697 JLINK_ReadReg(R15 (PC))  returns 0x20000000 (0000ms, 0424ms total)
TCA1C 000:697 JLINK_ClrBPEx(BPHandle = 0x00000009)  returns 0x00 (0000ms, 0424ms total)
TCA1C 000:697 JLINK_ReadReg(R0)  returns 0x00000000 (0000ms, 0424ms total)
TCA1C 000:697 JLINK_WriteReg(R0, 0x08001000)  returns 0x00 (0000ms, 0424ms total)
TCA1C 000:697 JLINK_WriteReg(R1, 0x00000400)  returns 0x00 (0000ms, 0424ms total)
TCA1C 000:697 JLINK_WriteReg(R2, 0x000000FF)  returns 0x00 (0000ms, 0424ms total)
TCA1C 000:697 JLINK_WriteReg(R3, 0x00000000)  returns 0x00 (0000ms, 0424ms total)
TCA1C 000:697 JLINK_WriteReg(R4, 0x00000000)  returns 0x00 (0000ms, 0424ms total)
TCA1C 000:697 JLINK_WriteReg(R5, 0x00000000)  returns 0x00 (0000ms, 0424ms total)
TCA1C 000:698 JLINK_WriteReg(R6, 0x00000000)  returns 0x00 (0000ms, 0425ms total)
TCA1C 000:698 JLINK_WriteReg(R7, 0x00000000)  returns 0x00 (0000ms, 0425ms total)
TCA1C 000:698 JLINK_WriteReg(R8, 0x00000000)  returns 0x00 (0000ms, 0425ms total)
TCA1C 000:698 JLINK_WriteReg(R9, 0x20000160)  returns 0x00 (0000ms, 0425ms total)
TCA1C 000:698 JLINK_WriteReg(R10, 0x00000000)  returns 0x00 (0000ms, 0425ms total)
TCA1C 000:698 JLINK_WriteReg(R11, 0x00000000)  returns 0x00 (0000ms, 0425ms total)
TCA1C 000:698 JLINK_WriteReg(R12, 0x00000000)  returns 0x00 (0000ms, 0425ms total)
TCA1C 000:698 JLINK_WriteReg(R13 (SP), 0x20001000)  returns 0x00 (0000ms, 0425ms total)
TCA1C 000:698 JLINK_WriteReg(R14, 0x20000001)  returns 0x00 (0000ms, 0425ms total)
TCA1C 000:698 JLINK_WriteReg(R15 (PC), 0x20000020)  returns 0x00 (0000ms, 0425ms total)
TCA1C 000:698 JLINK_WriteReg(XPSR, 0x01000000)  returns 0x00 (0000ms, 0425ms total)
TCA1C 000:698 JLINK_WriteReg(MSP, 0x20001000)  returns 0x00 (0000ms, 0425ms total)
TCA1C 000:698 JLINK_WriteReg(PSP, 0x20001000)  returns 0x00 (0000ms, 0425ms total)
TCA1C 000:698 JLINK_WriteReg(CFBP, 0x00000000)  returns 0x00 (0000ms, 0425ms total)
TCA1C 000:698 JLINK_SetBPEx(Addr = 0x20000000, Type = 0xFFFFFFF2)  returns 0x0000000A (0000ms, 0425ms total)
TCA1C 000:698 JLINK_Go() -- CPU_ReadMem(4 bytes @ 0xE0001000) (0002ms, 0427ms total)
TCA1C 000:700 JLINK_IsHalted() -- CPU_ReadMem(2 bytes @ 0x20000000)  returns TRUE (0003ms, 0430ms total)
TCA1C 000:703 JLINK_ReadReg(R15 (PC))  returns 0x20000000 (0000ms, 0427ms total)
TCA1C 000:703 JLINK_ClrBPEx(BPHandle = 0x0000000A)  returns 0x00 (0000ms, 0427ms total)
TCA1C 000:703 JLINK_ReadReg(R0)  returns 0x00000001 (0000ms, 0427ms total)
TCA1C 000:703 JLINK_WriteReg(R0, 0x08001000)  returns 0x00 (0000ms, 0427ms total)
TCA1C 000:703 JLINK_WriteReg(R1, 0x00000400)  returns 0x00 (0000ms, 0427ms total)
TCA1C 000:703 JLINK_WriteReg(R2, 0x000000FF)  returns 0x00 (0000ms, 0427ms total)
TCA1C 000:703 JLINK_WriteReg(R3, 0x00000000)  returns 0x00 (0000ms, 0427ms total)
TCA1C 000:703 JLINK_WriteReg(R4, 0x00000000)  returns 0x00 (0000ms, 0427ms total)
TCA1C 000:703 JLINK_WriteReg(R5, 0x00000000)  returns 0x00 (0001ms, 0428ms total)
TCA1C 000:704 JLINK_WriteReg(R6, 0x00000000)  returns 0x00 (0000ms, 0428ms total)
TCA1C 000:704 JLINK_WriteReg(R7, 0x00000000)  returns 0x00 (0000ms, 0428ms total)
TCA1C 000:704 JLINK_WriteReg(R8, 0x00000000)  returns 0x00 (0000ms, 0428ms total)
TCA1C 000:704 JLINK_WriteReg(R9, 0x20000160)  returns 0x00 (0000ms, 0428ms total)
TCA1C 000:704 JLINK_WriteReg(R10, 0x00000000)  returns 0x00 (0000ms, 0428ms total)
TCA1C 000:704 JLINK_WriteReg(R11, 0x00000000)  returns 0x00 (0000ms, 0428ms total)
TCA1C 000:704 JLINK_WriteReg(R12, 0x00000000)  returns 0x00 (0000ms, 0428ms total)
TCA1C 000:704 JLINK_WriteReg(R13 (SP), 0x20001000)  returns 0x00 (0000ms, 0428ms total)
TCA1C 000:704 JLINK_WriteReg(R14, 0x20000001)  returns 0x00 (0000ms, 0428ms total)
TCA1C 000:704 JLINK_WriteReg(R15 (PC), 0x200000B6)  returns 0x00 (0000ms, 0428ms total)
TCA1C 000:704 JLINK_WriteReg(XPSR, 0x01000000)  returns 0x00 (0000ms, 0428ms total)
TCA1C 000:704 JLINK_WriteReg(MSP, 0x20001000)  returns 0x00 (0000ms, 0428ms total)
TCA1C 000:704 JLINK_WriteReg(PSP, 0x20001000)  returns 0x00 (0000ms, 0428ms total)
TCA1C 000:704 JLINK_WriteReg(CFBP, 0x00000000)  returns 0x00 (0000ms, 0428ms total)
TCA1C 000:704 JLINK_SetBPEx(Addr = 0x20000000, Type = 0xFFFFFFF2)  returns 0x0000000B (0000ms, 0428ms total)
TCA1C 000:704 JLINK_Go() -- CPU_ReadMem(4 bytes @ 0xE0001000) (0002ms, 0430ms total)
TCA1C 000:706 JLINK_IsHalted()  returns FALSE (0001ms, 0431ms total)
TCA1C 000:709 JLINK_IsHalted()  returns FALSE (0000ms, 0430ms total)
TCA1C 000:711 JLINK_IsHalted()  returns FALSE (0000ms, 0430ms total)
TCA1C 000:713 JLINK_IsHalted()  returns FALSE (0000ms, 0430ms total)
TCA1C 000:715 JLINK_IsHalted()  returns FALSE (0000ms, 0430ms total)
TCA1C 000:717 JLINK_IsHalted()  returns FALSE (0000ms, 0430ms total)
TCA1C 000:719 JLINK_IsHalted()  returns FALSE (0000ms, 0430ms total)
TCA1C 000:721 JLINK_IsHalted()  returns FALSE (0000ms, 0430ms total)
TCA1C 000:723 JLINK_IsHalted()  returns FALSE (0000ms, 0430ms total)
TCA1C 000:725 JLINK_IsHalted()  returns FALSE (0000ms, 0430ms total)
TCA1C 000:727 JLINK_IsHalted()  returns FALSE (0000ms, 0430ms total)
TCA1C 000:731 JLINK_IsHalted() -- CPU_ReadMem(2 bytes @ 0x20000000)  returns TRUE (0003ms, 0433ms total)
TCA1C 000:734 JLINK_ReadReg(R15 (PC))  returns 0x20000000 (0000ms, 0430ms total)
TCA1C 000:734 JLINK_ClrBPEx(BPHandle = 0x0000000B)  returns 0x00 (0000ms, 0430ms total)
TCA1C 000:734 JLINK_ReadReg(R0)  returns 0x00000000 (0000ms, 0430ms total)
TCA1C 000:735 JLINK_WriteReg(R0, 0x08001400)  returns 0x00 (0000ms, 0430ms total)
TCA1C 000:735 JLINK_WriteReg(R1, 0x00000400)  returns 0x00 (0000ms, 0430ms total)
TCA1C 000:735 JLINK_WriteReg(R2, 0x000000FF)  returns 0x00 (0000ms, 0430ms total)
TCA1C 000:735 JLINK_WriteReg(R3, 0x00000000)  returns 0x00 (0000ms, 0430ms total)
TCA1C 000:735 JLINK_WriteReg(R4, 0x00000000)  returns 0x00 (0000ms, 0430ms total)
TCA1C 000:735 JLINK_WriteReg(R5, 0x00000000)  returns 0x00 (0000ms, 0430ms total)
TCA1C 000:735 JLINK_WriteReg(R6, 0x00000000)  returns 0x00 (0000ms, 0430ms total)
TCA1C 000:735 JLINK_WriteReg(R7, 0x00000000)  returns 0x00 (0000ms, 0430ms total)
TCA1C 000:735 JLINK_WriteReg(R8, 0x00000000)  returns 0x00 (0000ms, 0430ms total)
TCA1C 000:735 JLINK_WriteReg(R9, 0x20000160)  returns 0x00 (0000ms, 0430ms total)
TCA1C 000:735 JLINK_WriteReg(R10, 0x00000000)  returns 0x00 (0000ms, 0430ms total)
TCA1C 000:735 JLINK_WriteReg(R11, 0x00000000)  returns 0x00 (0000ms, 0430ms total)
TCA1C 000:735 JLINK_WriteReg(R12, 0x00000000)  returns 0x00 (0000ms, 0430ms total)
TCA1C 000:735 JLINK_WriteReg(R13 (SP), 0x20001000)  returns 0x00 (0000ms, 0430ms total)
TCA1C 000:735 JLINK_WriteReg(R14, 0x20000001)  returns 0x00 (0000ms, 0430ms total)
TCA1C 000:735 JLINK_WriteReg(R15 (PC), 0x20000020)  returns 0x00 (0000ms, 0430ms total)
TCA1C 000:735 JLINK_WriteReg(XPSR, 0x01000000)  returns 0x00 (0000ms, 0430ms total)
TCA1C 000:735 JLINK_WriteReg(MSP, 0x20001000)  returns 0x00 (0000ms, 0430ms total)
TCA1C 000:735 JLINK_WriteReg(PSP, 0x20001000)  returns 0x00 (0000ms, 0430ms total)
TCA1C 000:735 JLINK_WriteReg(CFBP, 0x00000000)  returns 0x00 (0000ms, 0430ms total)
TCA1C 000:735 JLINK_SetBPEx(Addr = 0x20000000, Type = 0xFFFFFFF2)  returns 0x0000000C (0000ms, 0430ms total)
TCA1C 000:735 JLINK_Go() -- CPU_ReadMem(4 bytes @ 0xE0001000) (0002ms, 0432ms total)
TCA1C 000:737 JLINK_IsHalted() -- CPU_ReadMem(2 bytes @ 0x20000000)  returns TRUE (0003ms, 0435ms total)
TCA1C 000:740 JLINK_ReadReg(R15 (PC))  returns 0x20000000 (0000ms, 0432ms total)
TCA1C 000:740 JLINK_ClrBPEx(BPHandle = 0x0000000C)  returns 0x00 (0000ms, 0432ms total)
TCA1C 000:740 JLINK_ReadReg(R0)  returns 0x00000001 (0000ms, 0432ms total)
TCA1C 000:740 JLINK_WriteReg(R0, 0x08001400)  returns 0x00 (0000ms, 0432ms total)
TCA1C 000:740 JLINK_WriteReg(R1, 0x00000400)  returns 0x00 (0000ms, 0432ms total)
TCA1C 000:740 JLINK_WriteReg(R2, 0x000000FF)  returns 0x00 (0000ms, 0432ms total)
TCA1C 000:740 JLINK_WriteReg(R3, 0x00000000)  returns 0x00 (0000ms, 0432ms total)
TCA1C 000:740 JLINK_WriteReg(R4, 0x00000000)  returns 0x00 (0000ms, 0432ms total)
TCA1C 000:740 JLINK_WriteReg(R5, 0x00000000)  returns 0x00 (0000ms, 0432ms total)
TCA1C 000:740 JLINK_WriteReg(R6, 0x00000000)  returns 0x00 (0000ms, 0432ms total)
TCA1C 000:740 JLINK_WriteReg(R7, 0x00000000)  returns 0x00 (0000ms, 0432ms total)
TCA1C 000:740 JLINK_WriteReg(R8, 0x00000000)  returns 0x00 (0000ms, 0432ms total)
TCA1C 000:740 JLINK_WriteReg(R9, 0x20000160)  returns 0x00 (0000ms, 0432ms total)
TCA1C 000:740 JLINK_WriteReg(R10, 0x00000000)  returns 0x00 (0000ms, 0432ms total)
TCA1C 000:740 JLINK_WriteReg(R11, 0x00000000)  returns 0x00 (0000ms, 0432ms total)
TCA1C 000:740 JLINK_WriteReg(R12, 0x00000000)  returns 0x00 (0000ms, 0432ms total)
TCA1C 000:740 JLINK_WriteReg(R13 (SP), 0x20001000)  returns 0x00 (0000ms, 0432ms total)
TCA1C 000:740 JLINK_WriteReg(R14, 0x20000001)  returns 0x00 (0000ms, 0432ms total)
TCA1C 000:740 JLINK_WriteReg(R15 (PC), 0x200000B6)  returns 0x00 (0001ms, 0433ms total)
TCA1C 000:741 JLINK_WriteReg(XPSR, 0x01000000)  returns 0x00 (0000ms, 0433ms total)
TCA1C 000:741 JLINK_WriteReg(MSP, 0x20001000)  returns 0x00 (0000ms, 0433ms total)
TCA1C 000:741 JLINK_WriteReg(PSP, 0x20001000)  returns 0x00 (0000ms, 0433ms total)
TCA1C 000:741 JLINK_WriteReg(CFBP, 0x00000000)  returns 0x00 (0000ms, 0433ms total)
TCA1C 000:741 JLINK_SetBPEx(Addr = 0x20000000, Type = 0xFFFFFFF2)  returns 0x0000000D (0000ms, 0433ms total)
TCA1C 000:741 JLINK_Go() -- CPU_ReadMem(4 bytes @ 0xE0001000) (0001ms, 0434ms total)
TCA1C 000:742 JLINK_IsHalted()  returns FALSE (0001ms, 0435ms total)
TCA1C 000:748 JLINK_IsHalted()  returns FALSE (0000ms, 0434ms total)
TCA1C 000:750 JLINK_IsHalted()  returns FALSE (0000ms, 0434ms total)
TCA1C 000:752 JLINK_IsHalted()  returns FALSE (0000ms, 0434ms total)
TCA1C 000:754 JLINK_IsHalted()  returns FALSE (0000ms, 0434ms total)
TCA1C 000:756 JLINK_IsHalted()  returns FALSE (0000ms, 0434ms total)
TCA1C 000:761 JLINK_IsHalted()  returns FALSE (0000ms, 0434ms total)
TCA1C 000:763 JLINK_IsHalted()  returns FALSE (0000ms, 0434ms total)
TCA1C 000:765 JLINK_IsHalted() -- CPU_ReadMem(2 bytes @ 0x20000000)  returns TRUE (0003ms, 0437ms total)
TCA1C 000:768 JLINK_ReadReg(R15 (PC))  returns 0x20000000 (0000ms, 0434ms total)
TCA1C 000:768 JLINK_ClrBPEx(BPHandle = 0x0000000D)  returns 0x00 (0000ms, 0434ms total)
TCA1C 000:768 JLINK_ReadReg(R0)  returns 0x00000000 (0000ms, 0434ms total)
TCA1C 000:769 JLINK_WriteReg(R0, 0x08001800)  returns 0x00 (0000ms, 0434ms total)
TCA1C 000:769 JLINK_WriteReg(R1, 0x00000400)  returns 0x00 (0000ms, 0434ms total)
TCA1C 000:769 JLINK_WriteReg(R2, 0x000000FF)  returns 0x00 (0000ms, 0434ms total)
TCA1C 000:769 JLINK_WriteReg(R3, 0x00000000)  returns 0x00 (0000ms, 0434ms total)
TCA1C 000:769 JLINK_WriteReg(R4, 0x00000000)  returns 0x00 (0000ms, 0434ms total)
TCA1C 000:769 JLINK_WriteReg(R5, 0x00000000)  returns 0x00 (0000ms, 0434ms total)
TCA1C 000:769 JLINK_WriteReg(R6, 0x00000000)  returns 0x00 (0000ms, 0434ms total)
TCA1C 000:769 JLINK_WriteReg(R7, 0x00000000)  returns 0x00 (0000ms, 0434ms total)
TCA1C 000:769 JLINK_WriteReg(R8, 0x00000000)  returns 0x00 (0000ms, 0434ms total)
TCA1C 000:769 JLINK_WriteReg(R9, 0x20000160)  returns 0x00 (0000ms, 0434ms total)
TCA1C 000:769 JLINK_WriteReg(R10, 0x00000000)  returns 0x00 (0000ms, 0434ms total)
TCA1C 000:769 JLINK_WriteReg(R11, 0x00000000)  returns 0x00 (0000ms, 0434ms total)
TCA1C 000:769 JLINK_WriteReg(R12, 0x00000000)  returns 0x00 (0000ms, 0434ms total)
TCA1C 000:769 JLINK_WriteReg(R13 (SP), 0x20001000)  returns 0x00 (0000ms, 0434ms total)
TCA1C 000:769 JLINK_WriteReg(R14, 0x20000001)  returns 0x00 (0000ms, 0434ms total)
TCA1C 000:769 JLINK_WriteReg(R15 (PC), 0x20000020)  returns 0x00 (0000ms, 0434ms total)
TCA1C 000:769 JLINK_WriteReg(XPSR, 0x01000000)  returns 0x00 (0000ms, 0434ms total)
TCA1C 000:769 JLINK_WriteReg(MSP, 0x20001000)  returns 0x00 (0000ms, 0434ms total)
TCA1C 000:769 JLINK_WriteReg(PSP, 0x20001000)  returns 0x00 (0000ms, 0434ms total)
TCA1C 000:769 JLINK_WriteReg(CFBP, 0x00000000)  returns 0x00 (0000ms, 0434ms total)
TCA1C 000:769 JLINK_SetBPEx(Addr = 0x20000000, Type = 0xFFFFFFF2)  returns 0x0000000E (0000ms, 0434ms total)
TCA1C 000:769 JLINK_Go() -- CPU_ReadMem(4 bytes @ 0xE0001000) (0002ms, 0436ms total)
TCA1C 000:771 JLINK_IsHalted() -- CPU_ReadMem(2 bytes @ 0x20000000)  returns TRUE (0003ms, 0439ms total)
TCA1C 000:774 JLINK_ReadReg(R15 (PC))  returns 0x20000000 (0000ms, 0436ms total)
TCA1C 000:774 JLINK_ClrBPEx(BPHandle = 0x0000000E)  returns 0x00 (0000ms, 0436ms total)
TCA1C 000:774 JLINK_ReadReg(R0)  returns 0x00000001 (0000ms, 0436ms total)
TCA1C 000:774 JLINK_WriteReg(R0, 0x08001800)  returns 0x00 (0000ms, 0436ms total)
TCA1C 000:774 JLINK_WriteReg(R1, 0x00000400)  returns 0x00 (0000ms, 0436ms total)
TCA1C 000:774 JLINK_WriteReg(R2, 0x000000FF)  returns 0x00 (0000ms, 0436ms total)
TCA1C 000:774 JLINK_WriteReg(R3, 0x00000000)  returns 0x00 (0000ms, 0436ms total)
TCA1C 000:774 JLINK_WriteReg(R4, 0x00000000)  returns 0x00 (0000ms, 0436ms total)
TCA1C 000:774 JLINK_WriteReg(R5, 0x00000000)  returns 0x00 (0000ms, 0436ms total)
TCA1C 000:775 JLINK_WriteReg(R6, 0x00000000)  returns 0x00 (0000ms, 0437ms total)
TCA1C 000:775 JLINK_WriteReg(R7, 0x00000000)  returns 0x00 (0000ms, 0437ms total)
TCA1C 000:775 JLINK_WriteReg(R8, 0x00000000)  returns 0x00 (0000ms, 0437ms total)
TCA1C 000:775 JLINK_WriteReg(R9, 0x20000160)  returns 0x00 (0000ms, 0437ms total)
TCA1C 000:775 JLINK_WriteReg(R10, 0x00000000)  returns 0x00 (0000ms, 0437ms total)
TCA1C 000:775 JLINK_WriteReg(R11, 0x00000000)  returns 0x00 (0000ms, 0437ms total)
TCA1C 000:775 JLINK_WriteReg(R12, 0x00000000)  returns 0x00 (0000ms, 0437ms total)
TCA1C 000:775 JLINK_WriteReg(R13 (SP), 0x20001000)  returns 0x00 (0000ms, 0437ms total)
TCA1C 000:775 JLINK_WriteReg(R14, 0x20000001)  returns 0x00 (0000ms, 0437ms total)
TCA1C 000:775 JLINK_WriteReg(R15 (PC), 0x200000B6)  returns 0x00 (0000ms, 0437ms total)
TCA1C 000:775 JLINK_WriteReg(XPSR, 0x01000000)  returns 0x00 (0000ms, 0437ms total)
TCA1C 000:775 JLINK_WriteReg(MSP, 0x20001000)  returns 0x00 (0000ms, 0437ms total)
TCA1C 000:775 JLINK_WriteReg(PSP, 0x20001000)  returns 0x00 (0000ms, 0437ms total)
TCA1C 000:775 JLINK_WriteReg(CFBP, 0x00000000)  returns 0x00 (0000ms, 0437ms total)
TCA1C 000:775 JLINK_SetBPEx(Addr = 0x20000000, Type = 0xFFFFFFF2)  returns 0x0000000F (0000ms, 0437ms total)
TCA1C 000:775 JLINK_Go() -- CPU_ReadMem(4 bytes @ 0xE0001000) (0002ms, 0439ms total)
TCA1C 000:777 JLINK_IsHalted()  returns FALSE (0000ms, 0439ms total)
TCA1C 000:779 JLINK_IsHalted()  returns FALSE (0000ms, 0439ms total)
TCA1C 000:781 JLINK_IsHalted()  returns FALSE (0000ms, 0439ms total)
TCA1C 000:783 JLINK_IsHalted()  returns FALSE (0000ms, 0439ms total)
TCA1C 000:785 JLINK_IsHalted()  returns FALSE (0000ms, 0439ms total)
TCA1C 000:787 JLINK_IsHalted()  returns FALSE (0000ms, 0439ms total)
TCA1C 000:789 JLINK_IsHalted()  returns FALSE (0000ms, 0439ms total)
TCA1C 000:791 JLINK_IsHalted()  returns FALSE (0000ms, 0439ms total)
TCA1C 000:793 JLINK_IsHalted()  returns FALSE (0000ms, 0439ms total)
TCA1C 000:795 JLINK_IsHalted()  returns FALSE (0000ms, 0439ms total)
TCA1C 000:797 JLINK_IsHalted()  returns FALSE (0000ms, 0439ms total)
TCA1C 000:799 JLINK_IsHalted() -- CPU_ReadMem(2 bytes @ 0x20000000)  returns TRUE (0003ms, 0442ms total)
TCA1C 000:802 JLINK_ReadReg(R15 (PC))  returns 0x20000000 (0000ms, 0439ms total)
TCA1C 000:802 JLINK_ClrBPEx(BPHandle = 0x0000000F)  returns 0x00 (0000ms, 0439ms total)
TCA1C 000:802 JLINK_ReadReg(R0)  returns 0x00000000 (0000ms, 0439ms total)
TCA1C 000:802 JLINK_WriteReg(R0, 0x08001C00)  returns 0x00 (0000ms, 0439ms total)
TCA1C 000:802 JLINK_WriteReg(R1, 0x00000400)  returns 0x00 (0000ms, 0439ms total)
TCA1C 000:802 JLINK_WriteReg(R2, 0x000000FF)  returns 0x00 (0000ms, 0439ms total)
TCA1C 000:802 JLINK_WriteReg(R3, 0x00000000)  returns 0x00 (0000ms, 0439ms total)
TCA1C 000:802 JLINK_WriteReg(R4, 0x00000000)  returns 0x00 (0000ms, 0439ms total)
TCA1C 000:802 JLINK_WriteReg(R5, 0x00000000)  returns 0x00 (0000ms, 0439ms total)
TCA1C 000:802 JLINK_WriteReg(R6, 0x00000000)  returns 0x00 (0000ms, 0439ms total)
TCA1C 000:802 JLINK_WriteReg(R7, 0x00000000)  returns 0x00 (0001ms, 0440ms total)
TCA1C 000:803 JLINK_WriteReg(R8, 0x00000000)  returns 0x00 (0000ms, 0440ms total)
TCA1C 000:803 JLINK_WriteReg(R9, 0x20000160)  returns 0x00 (0000ms, 0440ms total)
TCA1C 000:803 JLINK_WriteReg(R10, 0x00000000)  returns 0x00 (0000ms, 0440ms total)
TCA1C 000:803 JLINK_WriteReg(R11, 0x00000000)  returns 0x00 (0000ms, 0440ms total)
TCA1C 000:803 JLINK_WriteReg(R12, 0x00000000)  returns 0x00 (0000ms, 0440ms total)
TCA1C 000:803 JLINK_WriteReg(R13 (SP), 0x20001000)  returns 0x00 (0000ms, 0440ms total)
TCA1C 000:803 JLINK_WriteReg(R14, 0x20000001)  returns 0x00 (0000ms, 0440ms total)
TCA1C 000:803 JLINK_WriteReg(R15 (PC), 0x20000020)  returns 0x00 (0000ms, 0440ms total)
TCA1C 000:803 JLINK_WriteReg(XPSR, 0x01000000)  returns 0x00 (0000ms, 0440ms total)
TCA1C 000:803 JLINK_WriteReg(MSP, 0x20001000)  returns 0x00 (0000ms, 0440ms total)
TCA1C 000:803 JLINK_WriteReg(PSP, 0x20001000)  returns 0x00 (0000ms, 0440ms total)
TCA1C 000:803 JLINK_WriteReg(CFBP, 0x00000000)  returns 0x00 (0000ms, 0440ms total)
TCA1C 000:803 JLINK_SetBPEx(Addr = 0x20000000, Type = 0xFFFFFFF2)  returns 0x00000010 (0000ms, 0440ms total)
TCA1C 000:803 JLINK_Go() -- CPU_ReadMem(4 bytes @ 0xE0001000) (0002ms, 0442ms total)
TCA1C 000:805 JLINK_IsHalted() -- CPU_ReadMem(2 bytes @ 0x20000000)  returns TRUE (0003ms, 0445ms total)
TCA1C 000:808 JLINK_ReadReg(R15 (PC))  returns 0x20000000 (0000ms, 0442ms total)
TCA1C 000:808 JLINK_ClrBPEx(BPHandle = 0x00000010)  returns 0x00 (0000ms, 0442ms total)
TCA1C 000:808 JLINK_ReadReg(R0)  returns 0x00000001 (0000ms, 0442ms total)
TCA1C 000:808 JLINK_WriteReg(R0, 0x08001C00)  returns 0x00 (0000ms, 0442ms total)
TCA1C 000:808 JLINK_WriteReg(R1, 0x00000400)  returns 0x00 (0000ms, 0442ms total)
TCA1C 000:808 JLINK_WriteReg(R2, 0x000000FF)  returns 0x00 (0000ms, 0442ms total)
TCA1C 000:808 JLINK_WriteReg(R3, 0x00000000)  returns 0x00 (0000ms, 0442ms total)
TCA1C 000:808 JLINK_WriteReg(R4, 0x00000000)  returns 0x00 (0000ms, 0442ms total)
TCA1C 000:808 JLINK_WriteReg(R5, 0x00000000)  returns 0x00 (0000ms, 0442ms total)
TCA1C 000:808 JLINK_WriteReg(R6, 0x00000000)  returns 0x00 (0000ms, 0442ms total)
TCA1C 000:808 JLINK_WriteReg(R7, 0x00000000)  returns 0x00 (0000ms, 0442ms total)
TCA1C 000:808 JLINK_WriteReg(R8, 0x00000000)  returns 0x00 (0000ms, 0442ms total)
TCA1C 000:808 JLINK_WriteReg(R9, 0x20000160)  returns 0x00 (0000ms, 0442ms total)
TCA1C 000:808 JLINK_WriteReg(R10, 0x00000000)  returns 0x00 (0000ms, 0442ms total)
TCA1C 000:808 JLINK_WriteReg(R11, 0x00000000)  returns 0x00 (0000ms, 0442ms total)
